T1080 000:004.926   SEGGER J-Link V8.22 Log File
T1080 000:005.010   DLL Compiled: Mar 19 2025 15:43:23
T1080 000:005.019   Logging started @ 2025-05-20 11:11
T1080 000:005.027   Process: D:\Program Files\Keil_v5\UV4\UV4.exe
T1080 000:005.037 - 5.035ms 
T1080 000:005.047 JLINK_SetWarnOutHandler(...)
T1080 000:005.055 - 0.008ms 
T1080 000:005.064 JLINK_OpenEx(...)
T1080 000:009.054   Firmware: J-Link OB-STM32F072-CortexM compiled Jan  7 2099 00:00:00
T1080 000:010.088   Firmware: J-Link OB-STM32F072-CortexM compiled Jan  7 2099 00:00:00
T1080 000:010.212   Decompressing FW timestamp took 92 us
T1080 000:015.230   Hardware: V1.00
T1080 000:015.247   S/N: 4294967295
T1080 000:015.258   OEM: SEGGER
T1080 000:015.268   Feature(s): None
T1080 000:015.963   Bootloader: (FW returned invalid version)
T1080 000:016.884   TELNET listener socket opened on port 19021
T1080 000:016.939   WEBSRV WEBSRV_Init(): Starting webserver thread(s)
T1080 000:017.038   WEBSRV Webserver running on local port 19080
T1080 000:017.114   Looking for J-Link GUI Server exe at: D:\Program Files\Keil_v5\ARM\Segger\JLinkGUIServer.exe
T1080 000:017.190   Looking for J-Link GUI Server exe at: D:\Program Files\Keil_v5\ARM\Segger\JLink_V822\JLinkGUIServer.exe
T1080 000:017.204   Forking J-Link GUI Server: D:\Program Files\Keil_v5\ARM\Segger\JLink_V822\JLinkGUIServer.exe
T1080 000:019.755   J-Link GUI Server info: "J-Link GUI server V8.22 "
T1080 000:020.125 - 15.057ms returns "O.K."
T1080 000:020.150 JLINK_GetEmuCaps()
T1080 000:020.159 - 0.007ms returns 0xB8EA5A33
T1080 000:020.169 JLINK_TIF_GetAvailable(...)
T1080 000:020.384 - 0.214ms 
T1080 000:020.403 JLINK_SetErrorOutHandler(...)
T1080 000:020.411 - 0.007ms 
T1080 000:020.428 JLINK_ExecCommand("ProjectFile = "D:\05_研究生项目\05_喂奶机器人\03_代码\GPS_SEND\MDK-ARM\JLinkSettings.ini"", ...). 
T1080 000:030.094   Ref file found at: D:\Program Files\Keil_v5\ARM\Segger\JLinkDevices.ref
T1080 000:030.151   REF file references invalid XML file: D:\Program Files\Keil_v5\ARM\Segger\JLink_V822\JLinkDevices.xml
T1080 000:031.097 - 10.669ms returns 0x00
T1080 000:033.170 JLINK_ExecCommand("Device = STM32F103C8", ...). 
T1080 000:036.337   Device "STM32F103C8" selected.
T1080 000:036.588 - 3.397ms returns 0x00
T1080 000:036.602 JLINK_ExecCommand("DisableConnectionTimeout", ...). 
T1080 000:036.615   ERROR: Unknown command
T1080 000:036.626 - 0.015ms returns 0x01
T1080 000:036.634 JLINK_GetHardwareVersion()
T1080 000:036.643 - 0.007ms returns 10000
T1080 000:036.651 JLINK_GetDLLVersion()
T1080 000:036.658 - 0.007ms returns 82200
T1080 000:036.666 JLINK_GetOEMString(...)
T1080 000:036.674 JLINK_GetFirmwareString(...)
T1080 000:036.681 - 0.006ms 
T1080 000:041.659 JLINK_GetDLLVersion()
T1080 000:041.676 - 0.017ms returns 82200
T1080 000:041.685 JLINK_GetCompileDateTime()
T1080 000:041.693 - 0.007ms 
T1080 000:043.225 JLINK_GetFirmwareString(...)
T1080 000:043.242 - 0.017ms 
T1080 000:051.529 JLINK_GetHardwareVersion()
T1080 000:051.547 - 0.018ms returns 10000
T1080 000:053.102 JLINK_GetSN()
T1080 000:053.119 - 0.016ms returns -1
T1080 000:053.127 JLINK_GetOEMString(...)
T1080 000:054.645 JLINK_TIF_Select(JLINKARM_TIF_SWD)
T1080 000:055.531 - 0.885ms returns 0x00
T1080 000:055.550 JLINK_HasError()
T1080 000:055.565 JLINK_SetSpeed(5000)
T1080 000:055.702 - 0.138ms 
T1080 000:055.713 JLINK_GetId()
T1080 000:057.601   InitTarget() start
T1080 000:057.625    J-Link Script File: Executing InitTarget()
T1080 000:059.378   SWD selected. Executing JTAG -> SWD switching sequence.
T1080 000:063.173   DAP initialized successfully.
T1080 000:070.974   InitTarget() end - Took 11.9ms
T1080 000:073.438   Found SW-DP with ID 0x2BA01477
T1080 000:075.329   Old FW that does not support reading DPIDR via DAP jobs
T1080 000:077.721   DPv0 detected
T1080 000:079.242   CoreSight SoC-400 or earlier
T1080 000:082.521   Scanning AP map to find all available APs
T1080 000:084.960   AP[1]: Stopped AP scan as end of AP map has been reached
T1080 000:086.328   AP[0]: AHB-AP (IDR: 0x24770011, ADDR: 0x00000000)
T1080 000:087.810   Iterating through AP map to find AHB-AP to use
T1080 000:090.766   AP[0]: Core found
T1080 000:092.128   AP[0]: AHB-AP ROM base: 0xE00FF000
T1080 000:094.287   CPUID register: 0x412FC231. Implementer code: 0x41 (ARM)
T1080 000:095.726   Found Cortex-M3 r2p1, Little endian.
T1080 000:096.391   -- Max. mem block: 0x00002340
T1080 000:097.102   CPU_ReadMem(4 bytes @ 0xE000EDF0)
T1080 000:097.587   CPU_ReadMem(4 bytes @ 0xE0002000)
T1080 000:099.691   FPUnit: 6 code (BP) slots and 2 literal slots
T1080 000:099.714   CPU_ReadMem(4 bytes @ 0xE000EDFC)
T1080 000:100.242   CPU_WriteMem(4 bytes @ 0xE000EDFC)
T1080 000:100.736   CPU_ReadMem(4 bytes @ 0xE0001000)
T1080 000:101.235   CPU_WriteMem(4 bytes @ 0xE0001000)
T1080 000:101.795   CPU_ReadMem(4 bytes @ 0xE000ED88)
T1080 000:102.240   CPU_WriteMem(4 bytes @ 0xE000ED88)
T1080 000:102.771   CPU_ReadMem(4 bytes @ 0xE000ED88)
T1080 000:103.271   CPU_WriteMem(4 bytes @ 0xE000ED88)
T1080 000:105.193   CoreSight components:
T1080 000:106.672   ROMTbl[0] @ E00FF000
T1080 000:106.694   CPU_ReadMem(64 bytes @ 0xE00FF000)
T1080 000:107.774   CPU_ReadMem(32 bytes @ 0xE000EFE0)
T1080 000:110.007   [0][0]: E000E000 CID B105E00D PID 000BB000 SCS
T1080 000:110.032   CPU_ReadMem(32 bytes @ 0xE0001FE0)
T1080 000:112.361   [0][1]: E0001000 CID B105E00D PID 003BB002 DWT
T1080 000:112.383   CPU_ReadMem(32 bytes @ 0xE0002FE0)
T1080 000:114.538   [0][2]: E0002000 CID B105E00D PID 002BB003 FPB
T1080 000:114.563   CPU_ReadMem(32 bytes @ 0xE0000FE0)
T1080 000:116.693   [0][3]: E0000000 CID B105E00D PID 003BB001 ITM
T1080 000:116.714   CPU_ReadMem(32 bytes @ 0xE0040FE0)
T1080 000:118.899   [0][4]: E0040000 CID B105900D PID 003BB923 TPIU-Lite
T1080 000:119.234 - 63.520ms returns 0x2BA01477
T1080 000:119.278 JLINK_GetDLLVersion()
T1080 000:119.287 - 0.008ms returns 82200
T1080 000:119.297 JLINK_CORE_GetFound()
T1080 000:119.305 - 0.007ms returns 0x30000FF
T1080 000:119.313 JLINK_GetDebugInfo(0x100 = JLINKARM_ROM_TABLE_ADDR_INDEX)
T1080 000:119.321   Value=0xE00FF000
T1080 000:119.332 - 0.018ms returns 0
T1080 000:120.700 JLINK_GetDebugInfo(0x100 = JLINKARM_ROM_TABLE_ADDR_INDEX)
T1080 000:120.717   Value=0xE00FF000
T1080 000:120.729 - 0.029ms returns 0
T1080 000:120.738 JLINK_GetDebugInfo(0x101 = JLINKARM_DEBUG_INFO_ETM_ADDR_INDEX)
T1080 000:120.745   Value=0x00000000
T1080 000:120.756 - 0.018ms returns 0
T1080 000:120.764 JLINK_ReadMemEx(0xE0041FF0, 0x10 Bytes, Flags = 0x02000004)
T1080 000:120.781   CPU_ReadMem(16 bytes @ 0xE0041FF0)
T1080 000:121.355   Data:  00 00 00 00 00 00 00 00 00 00 00 00 00 00 00 00
T1080 000:121.368 - 0.604ms returns 16 (0x10)
T1080 000:121.377 JLINK_GetDebugInfo(0x102 = JLINKARM_DEBUG_INFO_MTB_ADDR_INDEX)
T1080 000:121.385   Value=0x00000000
T1080 000:121.395 - 0.018ms returns 0
T1080 000:121.403 JLINK_GetDebugInfo(0x103 = JLINKARM_DEBUG_INFO_TPIU_ADDR_INDEX)
T1080 000:121.410   Value=0xE0040000
T1080 000:121.420 - 0.017ms returns 0
T1080 000:121.428 JLINK_GetDebugInfo(0x104 = JLINKARM_DEBUG_INFO_ITM_ADDR_INDEX)
T1080 000:121.435   Value=0xE0000000
T1080 000:121.446 - 0.017ms returns 0
T1080 000:121.454 JLINK_GetDebugInfo(0x105 = JLINKARM_DEBUG_INFO_DWT_ADDR_INDEX)
T1080 000:121.461   Value=0xE0001000
T1080 000:121.471 - 0.017ms returns 0
T1080 000:121.479 JLINK_GetDebugInfo(0x106 = JLINKARM_DEBUG_INFO_FPB_ADDR_INDEX)
T1080 000:121.486   Value=0xE0002000
T1080 000:121.496 - 0.017ms returns 0
T1080 000:121.504 JLINK_GetDebugInfo(0x107 = JLINKARM_DEBUG_INFO_NVIC_ADDR_INDEX)
T1080 000:121.511   Value=0xE000E000
T1080 000:121.522 - 0.017ms returns 0
T1080 000:121.529 JLINK_GetDebugInfo(0x10C = JLINKARM_DEBUG_INFO_DBG_ADDR_INDEX)
T1080 000:121.536   Value=0xE000EDF0
T1080 000:121.547 - 0.017ms returns 0
T1080 000:121.555 JLINK_GetDebugInfo(0x01 = Unknown)
T1080 000:121.562   Value=0x00000000
T1080 000:121.572 - 0.017ms returns 0
T1080 000:121.581 JLINK_ReadMemU32(0xE000ED00, 0x1 Items)
T1080 000:121.591   CPU_ReadMem(4 bytes @ 0xE000ED00)
T1080 000:122.050   Data:  31 C2 2F 41
T1080 000:122.083   Debug reg: CPUID
T1080 000:122.093 - 0.512ms returns 1 (0x1)
T1080 000:122.102 JLINK_GetDebugInfo(0x10F = JLINKARM_DEBUG_INFO_HAS_CORTEX_M_SECURITY_EXT_INDEX)
T1080 000:122.110   Value=0x00000000
T1080 000:122.120 - 0.018ms returns 0
T1080 000:122.128 JLINK_HasError()
T1080 000:122.137 JLINK_SetResetType(JLINKARM_CM3_RESET_TYPE_NORMAL)
T1080 000:122.144 - 0.007ms returns JLINKARM_CM3_RESET_TYPE_NORMAL
T1080 000:122.152 JLINK_Reset()
T1080 000:122.162   JLINK_GetResetTypeDesc
T1080 000:122.169   - 0.007ms 
T1080 000:123.514   Reset type: NORMAL (https://wiki.segger.com/J-Link_Reset_Strategies)
T1080 000:123.533   CPU is running
T1080 000:123.545   CPU_WriteMem(4 bytes @ 0xE000EDF0)
T1080 000:124.095   CPU is running
T1080 000:124.107   CPU_WriteMem(4 bytes @ 0xE000EDFC)
T1080 000:126.100   Reset: Halt core after reset via DEMCR.VC_CORERESET.
T1080 000:128.198   Reset: Reset device via AIRCR.SYSRESETREQ.
T1080 000:128.220   CPU is running
T1080 000:128.233   CPU_WriteMem(4 bytes @ 0xE000ED0C)
T1080 000:183.401   CPU_ReadMem(4 bytes @ 0xE000EDF0)
T1080 000:184.126   CPU_ReadMem(4 bytes @ 0xE000EDF0)
T1080 000:189.473   CPU_WriteMem(4 bytes @ 0xE000EDFC)
T1080 000:195.913   CPU_ReadMem(4 bytes @ 0xE000EDF0)
T1080 000:201.743   CPU_WriteMem(4 bytes @ 0xE0002000)
T1080 000:202.671   CPU_ReadMem(4 bytes @ 0xE000EDFC)
T1080 000:203.459   CPU_ReadMem(4 bytes @ 0xE0001000)
T1080 000:204.401 - 82.246ms 
T1080 000:204.502 JLINK_Halt()
T1080 000:204.541 - 0.039ms returns 0x00
T1080 000:204.583 JLINK_ReadMemU32(0xE000EDF0, 0x1 Items)
T1080 000:204.643   CPU_ReadMem(4 bytes @ 0xE000EDF0)
T1080 000:205.533   Data:  03 00 03 00
T1080 000:205.599   Debug reg: DHCSR
T1080 000:205.664 - 1.064ms returns 1 (0x1)
T1080 000:205.727 JLINK_WriteU32(0xE000EDF0, 0xA05F0003)
T1080 000:205.760   Debug reg: DHCSR
T1080 000:206.576   CPU_WriteMem(4 bytes @ 0xE000EDF0)
T1080 000:207.429 - 1.712ms returns 0 (0x00000000)
T1080 000:207.513 JLINK_WriteU32(0xE000EDFC, 0x01000000)
T1080 000:207.544   Debug reg: DEMCR
T1080 000:207.604   CPU_WriteMem(4 bytes @ 0xE000EDFC)
T1080 000:208.323 - 0.809ms returns 0 (0x00000000)
T1080 000:220.147 JLINK_GetHWStatus(...)
T1080 000:220.424 - 0.277ms returns 0
T1080 000:224.743 JLINK_GetNumBPUnits(Type = 0xFFFFFF00)
T1080 000:224.762 - 0.018ms returns 0x06
T1080 000:224.770 JLINK_GetNumBPUnits(Type = 0xF0)
T1080 000:224.778 - 0.007ms returns 0x2000
T1080 000:224.785 JLINK_GetNumWPUnits()
T1080 000:224.792 - 0.006ms returns 4
T1080 000:228.824 JLINK_GetSpeed()
T1080 000:228.841 - 0.016ms returns 2000
T1080 000:234.864 JLINK_ReadMemU32(0xE000E004, 0x1 Items)
T1080 000:234.886   CPU_ReadMem(4 bytes @ 0xE000E004)
T1080 000:235.421   Data:  01 00 00 00
T1080 000:235.441 - 0.577ms returns 1 (0x1)
T1080 000:235.450 JLINK_ReadMemU32(0xE000E004, 0x1 Items)
T1080 000:235.460   CPU_ReadMem(4 bytes @ 0xE000E004)
T1080 000:236.021   Data:  01 00 00 00
T1080 000:236.037 - 0.586ms returns 1 (0x1)
T1080 000:236.046 JLINK_WriteMemEx(0xE0001000, 0x0000001C Bytes, Flags = 0x02000004)
T1080 000:236.053   Data:  01 00 00 00 00 00 00 00 00 00 00 00 00 00 00 00 ...
T1080 000:236.071   CPU_WriteMem(28 bytes @ 0xE0001000)
T1080 000:236.994 - 0.945ms returns 0x1C
T1080 000:237.016 JLINK_Halt()
T1080 000:237.023 - 0.007ms returns 0x00
T1080 000:237.031 JLINK_IsHalted()
T1080 000:237.038 - 0.006ms returns TRUE
T1080 000:238.431 JLINK_WriteMem(0x20000000, 0x164 Bytes, ...)
T1080 000:238.443   Data:  00 BE 0A E0 0D 78 2D 06 68 40 08 24 40 00 00 D3 ...
T1080 000:238.656   CPU_WriteMem(356 bytes @ 0x20000000)
T1080 000:242.619 - 4.188ms returns 0x164
T1080 000:242.654 JLINK_HasError()
T1080 000:242.663 JLINK_WriteReg(R0, 0x08000000)
T1080 000:242.676 - 0.013ms returns 0
T1080 000:242.684 JLINK_WriteReg(R1, 0x007A1200)
T1080 000:242.691 - 0.007ms returns 0
T1080 000:242.698 JLINK_WriteReg(R2, 0x00000001)
T1080 000:242.705 - 0.006ms returns 0
T1080 000:242.712 JLINK_WriteReg(R3, 0x00000000)
T1080 000:242.719 - 0.006ms returns 0
T1080 000:242.726 JLINK_WriteReg(R4, 0x00000000)
T1080 000:242.736 - 0.010ms returns 0
T1080 000:242.744 JLINK_WriteReg(R5, 0x00000000)
T1080 000:242.750 - 0.006ms returns 0
T1080 000:242.757 JLINK_WriteReg(R6, 0x00000000)
T1080 000:242.764 - 0.006ms returns 0
T1080 000:242.771 JLINK_WriteReg(R7, 0x00000000)
T1080 000:242.778 - 0.006ms returns 0
T1080 000:242.787 JLINK_WriteReg(R8, 0x00000000)
T1080 000:242.793 - 0.008ms returns 0
T1080 000:242.800 JLINK_WriteReg(R9, 0x20000160)
T1080 000:242.807 - 0.006ms returns 0
T1080 000:242.815 JLINK_WriteReg(R10, 0x00000000)
T1080 000:242.822 - 0.006ms returns 0
T1080 000:242.829 JLINK_WriteReg(R11, 0x00000000)
T1080 000:242.835 - 0.006ms returns 0
T1080 000:242.842 JLINK_WriteReg(R12, 0x00000000)
T1080 000:242.849 - 0.006ms returns 0
T1080 000:242.856 JLINK_WriteReg(R13 (SP), 0x20001000)
T1080 000:242.864 - 0.007ms returns 0
T1080 000:242.871 JLINK_WriteReg(R14, 0x20000001)
T1080 000:242.877 - 0.006ms returns 0
T1080 000:242.885 JLINK_WriteReg(R15 (PC), 0x20000038)
T1080 000:242.892 - 0.008ms returns 0
T1080 000:242.900 JLINK_WriteReg(XPSR, 0x01000000)
T1080 000:242.906 - 0.006ms returns 0
T1080 000:242.913 JLINK_WriteReg(MSP, 0x20001000)
T1080 000:242.920 - 0.006ms returns 0
T1080 000:242.927 JLINK_WriteReg(PSP, 0x20001000)
T1080 000:242.934 - 0.006ms returns 0
T1080 000:242.941 JLINK_WriteReg(CFBP, 0x00000000)
T1080 000:242.947 - 0.006ms returns 0
T1080 000:242.955 JLINK_SetBPEx(Addr = 0x20000000, Type = 0xFFFFFFF2)
T1080 000:242.966   CPU_ReadMem(2 bytes @ 0x20000000)
T1080 000:243.508 - 0.553ms returns 0x00000001
T1080 000:243.526 JLINK_Go()
T1080 000:243.536   CPU_WriteMem(2 bytes @ 0x20000000)
T1080 000:244.097   CPU_ReadMem(4 bytes @ 0xE0001000)
T1080 000:244.620   CPU_WriteMem(4 bytes @ 0xE0002008)
T1080 000:244.636   CPU_WriteMem(4 bytes @ 0xE000200C)
T1080 000:244.646   CPU_WriteMem(4 bytes @ 0xE0002010)
T1080 000:244.661   CPU_WriteMem(4 bytes @ 0xE0002014)
T1080 000:244.670   CPU_WriteMem(4 bytes @ 0xE0002018)
T1080 000:244.680   CPU_WriteMem(4 bytes @ 0xE000201C)
T1080 000:247.108   CPU_WriteMem(4 bytes @ 0xE0001004)
T1080 000:253.672   Memory map 'after startup completion point' is active
T1080 000:253.696 - 10.170ms 
T1080 000:253.707 JLINK_IsHalted()
T1080 000:258.513   CPU_ReadMem(2 bytes @ 0x20000000)
T1080 000:259.031 - 5.319ms returns TRUE
T1080 000:259.052 JLINK_ReadReg(R15 (PC))
T1080 000:259.062 - 0.010ms returns 0x20000000
T1080 000:259.072 JLINK_ClrBPEx(BPHandle = 0x00000001)
T1080 000:259.080 - 0.008ms returns 0x00
T1080 000:259.089 JLINK_ReadReg(R0)
T1080 000:259.097 - 0.008ms returns 0x00000000
T1080 000:259.291 JLINK_HasError()
T1080 000:259.304 JLINK_WriteReg(R0, 0x08000000)
T1080 000:259.313 - 0.009ms returns 0
T1080 000:259.322 JLINK_WriteReg(R1, 0x00000400)
T1080 000:259.330 - 0.008ms returns 0
T1080 000:259.339 JLINK_WriteReg(R2, 0x000000FF)
T1080 000:259.346 - 0.007ms returns 0
T1080 000:259.355 JLINK_WriteReg(R3, 0x00000000)
T1080 000:259.363 - 0.007ms returns 0
T1080 000:259.371 JLINK_WriteReg(R4, 0x00000000)
T1080 000:259.379 - 0.007ms returns 0
T1080 000:259.387 JLINK_WriteReg(R5, 0x00000000)
T1080 000:259.395 - 0.007ms returns 0
T1080 000:259.403 JLINK_WriteReg(R6, 0x00000000)
T1080 000:259.411 - 0.007ms returns 0
T1080 000:259.420 JLINK_WriteReg(R7, 0x00000000)
T1080 000:259.428 - 0.008ms returns 0
T1080 000:259.436 JLINK_WriteReg(R8, 0x00000000)
T1080 000:259.444 - 0.007ms returns 0
T1080 000:259.452 JLINK_WriteReg(R9, 0x20000160)
T1080 000:259.460 - 0.008ms returns 0
T1080 000:259.469 JLINK_WriteReg(R10, 0x00000000)
T1080 000:259.477 - 0.008ms returns 0
T1080 000:259.486 JLINK_WriteReg(R11, 0x00000000)
T1080 000:259.493 - 0.007ms returns 0
T1080 000:259.502 JLINK_WriteReg(R12, 0x00000000)
T1080 000:259.510 - 0.007ms returns 0
T1080 000:259.519 JLINK_WriteReg(R13 (SP), 0x20001000)
T1080 000:259.527 - 0.008ms returns 0
T1080 000:259.536 JLINK_WriteReg(R14, 0x20000001)
T1080 000:259.544 - 0.008ms returns 0
T1080 000:259.552 JLINK_WriteReg(R15 (PC), 0x20000020)
T1080 000:259.560 - 0.008ms returns 0
T1080 000:259.614 JLINK_WriteReg(XPSR, 0x01000000)
T1080 000:259.623 - 0.008ms returns 0
T1080 000:259.631 JLINK_WriteReg(MSP, 0x20001000)
T1080 000:259.640 - 0.008ms returns 0
T1080 000:259.650 JLINK_WriteReg(PSP, 0x20001000)
T1080 000:259.658 - 0.008ms returns 0
T1080 000:259.669 JLINK_WriteReg(CFBP, 0x00000000)
T1080 000:259.678 - 0.008ms returns 0
T1080 000:259.689 JLINK_SetBPEx(Addr = 0x20000000, Type = 0xFFFFFFF2)
T1080 000:259.698 - 0.009ms returns 0x00000002
T1080 000:259.708 JLINK_Go()
T1080 000:259.723   CPU_ReadMem(4 bytes @ 0xE0001000)
T1080 000:264.713 - 5.004ms 
T1080 000:264.745 JLINK_IsHalted()
T1080 000:269.400   CPU_ReadMem(2 bytes @ 0x20000000)
T1080 000:269.961 - 5.216ms returns TRUE
T1080 000:269.988 JLINK_ReadReg(R15 (PC))
T1080 000:270.006 - 0.017ms returns 0x20000000
T1080 000:270.023 JLINK_ClrBPEx(BPHandle = 0x00000002)
T1080 000:270.038 - 0.015ms returns 0x00
T1080 000:270.055 JLINK_ReadReg(R0)
T1080 000:270.069 - 0.013ms returns 0x00000001
T1080 000:270.086 JLINK_HasError()
T1080 000:270.137 JLINK_WriteReg(R0, 0x08000000)
T1080 000:270.152 - 0.016ms returns 0
T1080 000:270.167 JLINK_WriteReg(R1, 0x00000400)
T1080 000:270.179 - 0.013ms returns 0
T1080 000:270.193 JLINK_WriteReg(R2, 0x000000FF)
T1080 000:270.206 - 0.013ms returns 0
T1080 000:270.220 JLINK_WriteReg(R3, 0x00000000)
T1080 000:270.233 - 0.012ms returns 0
T1080 000:270.247 JLINK_WriteReg(R4, 0x00000000)
T1080 000:270.259 - 0.012ms returns 0
T1080 000:270.273 JLINK_WriteReg(R5, 0x00000000)
T1080 000:270.286 - 0.013ms returns 0
T1080 000:270.300 JLINK_WriteReg(R6, 0x00000000)
T1080 000:270.313 - 0.012ms returns 0
T1080 000:270.326 JLINK_WriteReg(R7, 0x00000000)
T1080 000:270.339 - 0.013ms returns 0
T1080 000:270.354 JLINK_WriteReg(R8, 0x00000000)
T1080 000:270.367 - 0.013ms returns 0
T1080 000:270.381 JLINK_WriteReg(R9, 0x20000160)
T1080 000:270.394 - 0.013ms returns 0
T1080 000:270.408 JLINK_WriteReg(R10, 0x00000000)
T1080 000:270.422 - 0.013ms returns 0
T1080 000:270.438 JLINK_WriteReg(R11, 0x00000000)
T1080 000:270.451 - 0.013ms returns 0
T1080 000:270.470 JLINK_WriteReg(R12, 0x00000000)
T1080 000:270.483 - 0.013ms returns 0
T1080 000:270.498 JLINK_WriteReg(R13 (SP), 0x20001000)
T1080 000:270.511 - 0.013ms returns 0
T1080 000:270.525 JLINK_WriteReg(R14, 0x20000001)
T1080 000:270.539 - 0.013ms returns 0
T1080 000:270.553 JLINK_WriteReg(R15 (PC), 0x200000B6)
T1080 000:270.567 - 0.013ms returns 0
T1080 000:270.581 JLINK_WriteReg(XPSR, 0x01000000)
T1080 000:270.594 - 0.013ms returns 0
T1080 000:270.609 JLINK_WriteReg(MSP, 0x20001000)
T1080 000:270.622 - 0.013ms returns 0
T1080 000:270.636 JLINK_WriteReg(PSP, 0x20001000)
T1080 000:270.650 - 0.013ms returns 0
T1080 000:270.664 JLINK_WriteReg(CFBP, 0x00000000)
T1080 000:270.677 - 0.013ms returns 0
T1080 000:270.692 JLINK_SetBPEx(Addr = 0x20000000, Type = 0xFFFFFFF2)
T1080 000:270.706 - 0.015ms returns 0x00000003
T1080 000:270.721 JLINK_Go()
T1080 000:270.741   CPU_ReadMem(4 bytes @ 0xE0001000)
T1080 000:275.777 - 5.055ms 
T1080 000:275.808 JLINK_IsHalted()
T1080 000:276.354 - 0.546ms returns FALSE
T1080 000:276.376 JLINK_HasError()
T1080 000:288.717 JLINK_IsHalted()
T1080 000:293.615   CPU_ReadMem(2 bytes @ 0x20000000)
T1080 000:294.417 - 5.699ms returns TRUE
T1080 000:294.432 JLINK_ReadReg(R15 (PC))
T1080 000:294.445 - 0.012ms returns 0x20000000
T1080 000:294.457 JLINK_ClrBPEx(BPHandle = 0x00000003)
T1080 000:294.468 - 0.011ms returns 0x00
T1080 000:294.479 JLINK_ReadReg(R0)
T1080 000:294.490 - 0.011ms returns 0x00000000
T1080 000:294.898 JLINK_HasError()
T1080 000:294.918 JLINK_WriteReg(R0, 0x08000400)
T1080 000:294.930 - 0.012ms returns 0
T1080 000:294.942 JLINK_WriteReg(R1, 0x00000400)
T1080 000:294.952 - 0.010ms returns 0
T1080 000:294.963 JLINK_WriteReg(R2, 0x000000FF)
T1080 000:294.974 - 0.010ms returns 0
T1080 000:294.985 JLINK_WriteReg(R3, 0x00000000)
T1080 000:294.996 - 0.010ms returns 0
T1080 000:295.007 JLINK_WriteReg(R4, 0x00000000)
T1080 000:295.018 - 0.010ms returns 0
T1080 000:295.033 JLINK_WriteReg(R5, 0x00000000)
T1080 000:295.045 - 0.013ms returns 0
T1080 000:295.057 JLINK_WriteReg(R6, 0x00000000)
T1080 000:295.067 - 0.010ms returns 0
T1080 000:295.078 JLINK_WriteReg(R7, 0x00000000)
T1080 000:295.089 - 0.010ms returns 0
T1080 000:295.100 JLINK_WriteReg(R8, 0x00000000)
T1080 000:295.110 - 0.010ms returns 0
T1080 000:295.126 JLINK_WriteReg(R9, 0x20000160)
T1080 000:295.137 - 0.010ms returns 0
T1080 000:295.148 JLINK_WriteReg(R10, 0x00000000)
T1080 000:295.158 - 0.010ms returns 0
T1080 000:295.169 JLINK_WriteReg(R11, 0x00000000)
T1080 000:295.180 - 0.010ms returns 0
T1080 000:295.191 JLINK_WriteReg(R12, 0x00000000)
T1080 000:295.202 - 0.010ms returns 0
T1080 000:295.213 JLINK_WriteReg(R13 (SP), 0x20001000)
T1080 000:295.224 - 0.011ms returns 0
T1080 000:295.235 JLINK_WriteReg(R14, 0x20000001)
T1080 000:295.246 - 0.010ms returns 0
T1080 000:295.257 JLINK_WriteReg(R15 (PC), 0x20000020)
T1080 000:295.268 - 0.010ms returns 0
T1080 000:295.279 JLINK_WriteReg(XPSR, 0x01000000)
T1080 000:295.290 - 0.010ms returns 0
T1080 000:295.301 JLINK_WriteReg(MSP, 0x20001000)
T1080 000:295.311 - 0.010ms returns 0
T1080 000:295.322 JLINK_WriteReg(PSP, 0x20001000)
T1080 000:295.333 - 0.010ms returns 0
T1080 000:295.344 JLINK_WriteReg(CFBP, 0x00000000)
T1080 000:295.354 - 0.010ms returns 0
T1080 000:295.366 JLINK_SetBPEx(Addr = 0x20000000, Type = 0xFFFFFFF2)
T1080 000:295.377 - 0.011ms returns 0x00000004
T1080 000:295.388 JLINK_Go()
T1080 000:295.406   CPU_ReadMem(4 bytes @ 0xE0001000)
T1080 000:300.864 - 5.475ms 
T1080 000:300.890 JLINK_IsHalted()
T1080 000:305.435   CPU_ReadMem(2 bytes @ 0x20000000)
T1080 000:306.007 - 5.117ms returns TRUE
T1080 000:306.034 JLINK_ReadReg(R15 (PC))
T1080 000:306.049 - 0.014ms returns 0x20000000
T1080 000:306.062 JLINK_ClrBPEx(BPHandle = 0x00000004)
T1080 000:306.074 - 0.012ms returns 0x00
T1080 000:306.086 JLINK_ReadReg(R0)
T1080 000:306.098 - 0.011ms returns 0x00000001
T1080 000:306.110 JLINK_HasError()
T1080 000:306.123 JLINK_WriteReg(R0, 0x08000400)
T1080 000:306.134 - 0.012ms returns 0
T1080 000:306.147 JLINK_WriteReg(R1, 0x00000400)
T1080 000:306.158 - 0.011ms returns 0
T1080 000:306.170 JLINK_WriteReg(R2, 0x000000FF)
T1080 000:306.182 - 0.011ms returns 0
T1080 000:306.194 JLINK_WriteReg(R3, 0x00000000)
T1080 000:306.211 - 0.017ms returns 0
T1080 000:306.224 JLINK_WriteReg(R4, 0x00000000)
T1080 000:306.235 - 0.011ms returns 0
T1080 000:306.247 JLINK_WriteReg(R5, 0x00000000)
T1080 000:306.258 - 0.011ms returns 0
T1080 000:306.270 JLINK_WriteReg(R6, 0x00000000)
T1080 000:306.281 - 0.011ms returns 0
T1080 000:306.293 JLINK_WriteReg(R7, 0x00000000)
T1080 000:306.304 - 0.011ms returns 0
T1080 000:306.316 JLINK_WriteReg(R8, 0x00000000)
T1080 000:306.327 - 0.011ms returns 0
T1080 000:306.339 JLINK_WriteReg(R9, 0x20000160)
T1080 000:306.350 - 0.011ms returns 0
T1080 000:306.362 JLINK_WriteReg(R10, 0x00000000)
T1080 000:306.374 - 0.011ms returns 0
T1080 000:306.386 JLINK_WriteReg(R11, 0x00000000)
T1080 000:306.397 - 0.011ms returns 0
T1080 000:306.409 JLINK_WriteReg(R12, 0x00000000)
T1080 000:306.420 - 0.011ms returns 0
T1080 000:306.433 JLINK_WriteReg(R13 (SP), 0x20001000)
T1080 000:306.445 - 0.012ms returns 0
T1080 000:306.462 JLINK_WriteReg(R14, 0x20000001)
T1080 000:306.474 - 0.011ms returns 0
T1080 000:306.486 JLINK_WriteReg(R15 (PC), 0x200000B6)
T1080 000:306.498 - 0.011ms returns 0
T1080 000:306.510 JLINK_WriteReg(XPSR, 0x01000000)
T1080 000:306.521 - 0.011ms returns 0
T1080 000:306.534 JLINK_WriteReg(MSP, 0x20001000)
T1080 000:306.545 - 0.011ms returns 0
T1080 000:306.558 JLINK_WriteReg(PSP, 0x20001000)
T1080 000:306.569 - 0.011ms returns 0
T1080 000:306.581 JLINK_WriteReg(CFBP, 0x00000000)
T1080 000:306.593 - 0.011ms returns 0
T1080 000:306.606 JLINK_SetBPEx(Addr = 0x20000000, Type = 0xFFFFFFF2)
T1080 000:306.618 - 0.013ms returns 0x00000005
T1080 000:306.631 JLINK_Go()
T1080 000:306.650   CPU_ReadMem(4 bytes @ 0xE0001000)
T1080 000:311.855 - 5.223ms 
T1080 000:311.886 JLINK_IsHalted()
T1080 000:312.452 - 0.566ms returns FALSE
T1080 000:312.470 JLINK_HasError()
T1080 000:317.258 JLINK_IsHalted()
T1080 000:321.972   CPU_ReadMem(2 bytes @ 0x20000000)
T1080 000:322.597 - 5.340ms returns TRUE
T1080 000:322.640 JLINK_ReadReg(R15 (PC))
T1080 000:322.659 - 0.019ms returns 0x20000000
T1080 000:322.678 JLINK_ClrBPEx(BPHandle = 0x00000005)
T1080 000:322.693 - 0.015ms returns 0x00
T1080 000:322.712 JLINK_ReadReg(R0)
T1080 000:322.726 - 0.014ms returns 0x00000000
T1080 000:323.252 JLINK_HasError()
T1080 000:323.278 JLINK_WriteReg(R0, 0x08000800)
T1080 000:323.293 - 0.014ms returns 0
T1080 000:323.306 JLINK_WriteReg(R1, 0x00000400)
T1080 000:323.319 - 0.012ms returns 0
T1080 000:323.333 JLINK_WriteReg(R2, 0x000000FF)
T1080 000:323.346 - 0.012ms returns 0
T1080 000:323.360 JLINK_WriteReg(R3, 0x00000000)
T1080 000:323.372 - 0.012ms returns 0
T1080 000:323.386 JLINK_WriteReg(R4, 0x00000000)
T1080 000:323.399 - 0.012ms returns 0
T1080 000:323.412 JLINK_WriteReg(R5, 0x00000000)
T1080 000:323.425 - 0.012ms returns 0
T1080 000:323.439 JLINK_WriteReg(R6, 0x00000000)
T1080 000:323.452 - 0.013ms returns 0
T1080 000:323.466 JLINK_WriteReg(R7, 0x00000000)
T1080 000:323.478 - 0.012ms returns 0
T1080 000:323.493 JLINK_WriteReg(R8, 0x00000000)
T1080 000:323.505 - 0.012ms returns 0
T1080 000:323.518 JLINK_WriteReg(R9, 0x20000160)
T1080 000:323.531 - 0.012ms returns 0
T1080 000:323.544 JLINK_WriteReg(R10, 0x00000000)
T1080 000:323.557 - 0.012ms returns 0
T1080 000:323.570 JLINK_WriteReg(R11, 0x00000000)
T1080 000:323.582 - 0.012ms returns 0
T1080 000:323.595 JLINK_WriteReg(R12, 0x00000000)
T1080 000:323.608 - 0.012ms returns 0
T1080 000:323.621 JLINK_WriteReg(R13 (SP), 0x20001000)
T1080 000:323.638 - 0.017ms returns 0
T1080 000:323.652 JLINK_WriteReg(R14, 0x20000001)
T1080 000:323.664 - 0.012ms returns 0
T1080 000:323.677 JLINK_WriteReg(R15 (PC), 0x20000020)
T1080 000:323.690 - 0.012ms returns 0
T1080 000:323.703 JLINK_WriteReg(XPSR, 0x01000000)
T1080 000:323.715 - 0.012ms returns 0
T1080 000:323.728 JLINK_WriteReg(MSP, 0x20001000)
T1080 000:323.741 - 0.012ms returns 0
T1080 000:323.754 JLINK_WriteReg(PSP, 0x20001000)
T1080 000:323.766 - 0.012ms returns 0
T1080 000:323.780 JLINK_WriteReg(CFBP, 0x00000000)
T1080 000:323.792 - 0.012ms returns 0
T1080 000:323.806 JLINK_SetBPEx(Addr = 0x20000000, Type = 0xFFFFFFF2)
T1080 000:323.819 - 0.013ms returns 0x00000006
T1080 000:323.832 JLINK_Go()
T1080 000:323.853   CPU_ReadMem(4 bytes @ 0xE0001000)
T1080 000:328.880 - 5.047ms 
T1080 000:328.915 JLINK_IsHalted()
T1080 000:333.465   CPU_ReadMem(2 bytes @ 0x20000000)
T1080 000:334.000 - 5.083ms returns TRUE
T1080 000:334.043 JLINK_ReadReg(R15 (PC))
T1080 000:334.059 - 0.016ms returns 0x20000000
T1080 000:334.074 JLINK_ClrBPEx(BPHandle = 0x00000006)
T1080 000:334.088 - 0.014ms returns 0x00
T1080 000:334.103 JLINK_ReadReg(R0)
T1080 000:334.115 - 0.012ms returns 0x00000001
T1080 000:334.129 JLINK_HasError()
T1080 000:334.143 JLINK_WriteReg(R0, 0x08000800)
T1080 000:334.156 - 0.013ms returns 0
T1080 000:334.169 JLINK_WriteReg(R1, 0x00000400)
T1080 000:334.182 - 0.012ms returns 0
T1080 000:334.195 JLINK_WriteReg(R2, 0x000000FF)
T1080 000:334.208 - 0.012ms returns 0
T1080 000:334.221 JLINK_WriteReg(R3, 0x00000000)
T1080 000:334.233 - 0.012ms returns 0
T1080 000:334.246 JLINK_WriteReg(R4, 0x00000000)
T1080 000:334.259 - 0.012ms returns 0
T1080 000:334.272 JLINK_WriteReg(R5, 0x00000000)
T1080 000:334.285 - 0.012ms returns 0
T1080 000:334.298 JLINK_WriteReg(R6, 0x00000000)
T1080 000:334.310 - 0.012ms returns 0
T1080 000:334.324 JLINK_WriteReg(R7, 0x00000000)
T1080 000:334.342 - 0.013ms returns 0
T1080 000:334.355 JLINK_WriteReg(R8, 0x00000000)
T1080 000:334.367 - 0.012ms returns 0
T1080 000:334.380 JLINK_WriteReg(R9, 0x20000160)
T1080 000:334.393 - 0.012ms returns 0
T1080 000:334.406 JLINK_WriteReg(R10, 0x00000000)
T1080 000:334.418 - 0.012ms returns 0
T1080 000:334.431 JLINK_WriteReg(R11, 0x00000000)
T1080 000:334.444 - 0.012ms returns 0
T1080 000:334.457 JLINK_WriteReg(R12, 0x00000000)
T1080 000:334.475 - 0.018ms returns 0
T1080 000:334.489 JLINK_WriteReg(R13 (SP), 0x20001000)
T1080 000:334.502 - 0.012ms returns 0
T1080 000:334.515 JLINK_WriteReg(R14, 0x20000001)
T1080 000:334.527 - 0.012ms returns 0
T1080 000:334.541 JLINK_WriteReg(R15 (PC), 0x200000B6)
T1080 000:334.553 - 0.012ms returns 0
T1080 000:334.566 JLINK_WriteReg(XPSR, 0x01000000)
T1080 000:334.579 - 0.012ms returns 0
T1080 000:334.594 JLINK_WriteReg(MSP, 0x20001000)
T1080 000:334.606 - 0.012ms returns 0
T1080 000:334.619 JLINK_WriteReg(PSP, 0x20001000)
T1080 000:334.631 - 0.012ms returns 0
T1080 000:334.645 JLINK_WriteReg(CFBP, 0x00000000)
T1080 000:334.657 - 0.012ms returns 0
T1080 000:334.670 JLINK_SetBPEx(Addr = 0x20000000, Type = 0xFFFFFFF2)
T1080 000:334.684 - 0.013ms returns 0x00000007
T1080 000:334.697 JLINK_Go()
T1080 000:334.715   CPU_ReadMem(4 bytes @ 0xE0001000)
T1080 000:339.736 - 5.038ms 
T1080 000:339.767 JLINK_IsHalted()
T1080 000:340.326 - 0.558ms returns FALSE
T1080 000:340.348 JLINK_HasError()
T1080 000:341.968 JLINK_IsHalted()
T1080 000:346.734   CPU_ReadMem(2 bytes @ 0x20000000)
T1080 000:347.380 - 5.412ms returns TRUE
T1080 000:347.411 JLINK_ReadReg(R15 (PC))
T1080 000:347.432 - 0.020ms returns 0x20000000
T1080 000:347.451 JLINK_ClrBPEx(BPHandle = 0x00000007)
T1080 000:347.469 - 0.018ms returns 0x00
T1080 000:347.488 JLINK_ReadReg(R0)
T1080 000:347.506 - 0.017ms returns 0x00000000
T1080 000:348.320 JLINK_HasError()
T1080 000:348.358 JLINK_WriteReg(R0, 0x08000C00)
T1080 000:348.379 - 0.021ms returns 0
T1080 000:348.399 JLINK_WriteReg(R1, 0x00000400)
T1080 000:348.417 - 0.018ms returns 0
T1080 000:348.437 JLINK_WriteReg(R2, 0x000000FF)
T1080 000:348.456 - 0.018ms returns 0
T1080 000:348.475 JLINK_WriteReg(R3, 0x00000000)
T1080 000:348.493 - 0.018ms returns 0
T1080 000:348.513 JLINK_WriteReg(R4, 0x00000000)
T1080 000:348.531 - 0.018ms returns 0
T1080 000:348.551 JLINK_WriteReg(R5, 0x00000000)
T1080 000:348.569 - 0.018ms returns 0
T1080 000:348.588 JLINK_WriteReg(R6, 0x00000000)
T1080 000:348.606 - 0.018ms returns 0
T1080 000:348.626 JLINK_WriteReg(R7, 0x00000000)
T1080 000:348.657 - 0.030ms returns 0
T1080 000:348.677 JLINK_WriteReg(R8, 0x00000000)
T1080 000:348.701 - 0.023ms returns 0
T1080 000:348.721 JLINK_WriteReg(R9, 0x20000160)
T1080 000:348.739 - 0.018ms returns 0
T1080 000:348.758 JLINK_WriteReg(R10, 0x00000000)
T1080 000:348.776 - 0.018ms returns 0
T1080 000:348.796 JLINK_WriteReg(R11, 0x00000000)
T1080 000:348.814 - 0.018ms returns 0
T1080 000:348.833 JLINK_WriteReg(R12, 0x00000000)
T1080 000:348.851 - 0.018ms returns 0
T1080 000:348.871 JLINK_WriteReg(R13 (SP), 0x20001000)
T1080 000:348.889 - 0.019ms returns 0
T1080 000:348.912 JLINK_WriteReg(R14, 0x20000001)
T1080 000:348.929 - 0.017ms returns 0
T1080 000:348.947 JLINK_WriteReg(R15 (PC), 0x20000020)
T1080 000:348.964 - 0.017ms returns 0
T1080 000:348.983 JLINK_WriteReg(XPSR, 0x01000000)
T1080 000:349.000 - 0.017ms returns 0
T1080 000:349.019 JLINK_WriteReg(MSP, 0x20001000)
T1080 000:349.036 - 0.017ms returns 0
T1080 000:349.054 JLINK_WriteReg(PSP, 0x20001000)
T1080 000:349.071 - 0.017ms returns 0
T1080 000:349.090 JLINK_WriteReg(CFBP, 0x00000000)
T1080 000:349.107 - 0.017ms returns 0
T1080 000:349.126 JLINK_SetBPEx(Addr = 0x20000000, Type = 0xFFFFFFF2)
T1080 000:349.145 - 0.019ms returns 0x00000008
T1080 000:349.164 JLINK_Go()
T1080 000:349.192   CPU_ReadMem(4 bytes @ 0xE0001000)
T1080 000:354.363 - 5.199ms 
T1080 000:354.407 JLINK_IsHalted()
T1080 000:359.007   CPU_ReadMem(2 bytes @ 0x20000000)
T1080 000:359.655 - 5.247ms returns TRUE
T1080 000:359.703 JLINK_ReadReg(R15 (PC))
T1080 000:359.725 - 0.021ms returns 0x20000000
T1080 000:359.743 JLINK_ClrBPEx(BPHandle = 0x00000008)
T1080 000:359.760 - 0.016ms returns 0x00
T1080 000:359.777 JLINK_ReadReg(R0)
T1080 000:359.793 - 0.015ms returns 0x00000001
T1080 000:359.810 JLINK_HasError()
T1080 000:359.829 JLINK_WriteReg(R0, 0x08000C00)
T1080 000:359.845 - 0.016ms returns 0
T1080 000:359.862 JLINK_WriteReg(R1, 0x00000400)
T1080 000:359.948 - 0.085ms returns 0
T1080 000:359.966 JLINK_WriteReg(R2, 0x000000FF)
T1080 000:359.982 - 0.015ms returns 0
T1080 000:359.998 JLINK_WriteReg(R3, 0x00000000)
T1080 000:360.014 - 0.015ms returns 0
T1080 000:360.031 JLINK_WriteReg(R4, 0x00000000)
T1080 000:360.047 - 0.015ms returns 0
T1080 000:360.063 JLINK_WriteReg(R5, 0x00000000)
T1080 000:360.079 - 0.016ms returns 0
T1080 000:360.096 JLINK_WriteReg(R6, 0x00000000)
T1080 000:360.111 - 0.015ms returns 0
T1080 000:360.133 JLINK_WriteReg(R7, 0x00000000)
T1080 000:360.149 - 0.015ms returns 0
T1080 000:360.165 JLINK_WriteReg(R8, 0x00000000)
T1080 000:360.181 - 0.015ms returns 0
T1080 000:360.197 JLINK_WriteReg(R9, 0x20000160)
T1080 000:360.213 - 0.015ms returns 0
T1080 000:360.230 JLINK_WriteReg(R10, 0x00000000)
T1080 000:360.245 - 0.015ms returns 0
T1080 000:360.262 JLINK_WriteReg(R11, 0x00000000)
T1080 000:360.278 - 0.015ms returns 0
T1080 000:360.294 JLINK_WriteReg(R12, 0x00000000)
T1080 000:360.310 - 0.016ms returns 0
T1080 000:360.327 JLINK_WriteReg(R13 (SP), 0x20001000)
T1080 000:360.344 - 0.016ms returns 0
T1080 000:360.360 JLINK_WriteReg(R14, 0x20000001)
T1080 000:360.376 - 0.015ms returns 0
T1080 000:360.393 JLINK_WriteReg(R15 (PC), 0x200000B6)
T1080 000:360.409 - 0.016ms returns 0
T1080 000:360.425 JLINK_WriteReg(XPSR, 0x01000000)
T1080 000:360.441 - 0.016ms returns 0
T1080 000:360.458 JLINK_WriteReg(MSP, 0x20001000)
T1080 000:360.474 - 0.015ms returns 0
T1080 000:360.490 JLINK_WriteReg(PSP, 0x20001000)
T1080 000:360.506 - 0.016ms returns 0
T1080 000:360.524 JLINK_WriteReg(CFBP, 0x00000000)
T1080 000:360.541 - 0.016ms returns 0
T1080 000:360.561 JLINK_SetBPEx(Addr = 0x20000000, Type = 0xFFFFFFF2)
T1080 000:360.580 - 0.020ms returns 0x00000009
T1080 000:360.599 JLINK_Go()
T1080 000:360.623   CPU_ReadMem(4 bytes @ 0xE0001000)
T1080 000:366.025 - 5.425ms 
T1080 000:366.059 JLINK_IsHalted()
T1080 000:366.624 - 0.564ms returns FALSE
T1080 000:366.643 JLINK_HasError()
T1080 000:368.591 JLINK_IsHalted()
T1080 000:373.327   CPU_ReadMem(2 bytes @ 0x20000000)
T1080 000:373.935 - 5.344ms returns TRUE
T1080 000:373.968 JLINK_ReadReg(R15 (PC))
T1080 000:373.990 - 0.022ms returns 0x20000000
T1080 000:374.013 JLINK_ClrBPEx(BPHandle = 0x00000009)
T1080 000:374.032 - 0.019ms returns 0x00
T1080 000:374.054 JLINK_ReadReg(R0)
T1080 000:374.072 - 0.018ms returns 0x00000000
T1080 000:374.732 JLINK_HasError()
T1080 000:374.764 JLINK_WriteReg(R0, 0x08001000)
T1080 000:374.784 - 0.020ms returns 0
T1080 000:374.803 JLINK_WriteReg(R1, 0x00000400)
T1080 000:374.819 - 0.017ms returns 0
T1080 000:374.837 JLINK_WriteReg(R2, 0x000000FF)
T1080 000:374.853 - 0.016ms returns 0
T1080 000:374.872 JLINK_WriteReg(R3, 0x00000000)
T1080 000:374.888 - 0.016ms returns 0
T1080 000:374.906 JLINK_WriteReg(R4, 0x00000000)
T1080 000:374.922 - 0.016ms returns 0
T1080 000:374.940 JLINK_WriteReg(R5, 0x00000000)
T1080 000:374.956 - 0.016ms returns 0
T1080 000:374.974 JLINK_WriteReg(R6, 0x00000000)
T1080 000:374.990 - 0.016ms returns 0
T1080 000:375.008 JLINK_WriteReg(R7, 0x00000000)
T1080 000:375.024 - 0.016ms returns 0
T1080 000:375.043 JLINK_WriteReg(R8, 0x00000000)
T1080 000:375.059 - 0.016ms returns 0
T1080 000:375.082 JLINK_WriteReg(R9, 0x20000160)
T1080 000:375.099 - 0.017ms returns 0
T1080 000:375.116 JLINK_WriteReg(R10, 0x00000000)
T1080 000:375.133 - 0.016ms returns 0
T1080 000:375.150 JLINK_WriteReg(R11, 0x00000000)
T1080 000:375.167 - 0.016ms returns 0
T1080 000:375.185 JLINK_WriteReg(R12, 0x00000000)
T1080 000:375.201 - 0.016ms returns 0
T1080 000:375.219 JLINK_WriteReg(R13 (SP), 0x20001000)
T1080 000:375.236 - 0.017ms returns 0
T1080 000:375.254 JLINK_WriteReg(R14, 0x20000001)
T1080 000:375.270 - 0.016ms returns 0
T1080 000:375.288 JLINK_WriteReg(R15 (PC), 0x20000020)
T1080 000:375.305 - 0.017ms returns 0
T1080 000:375.323 JLINK_WriteReg(XPSR, 0x01000000)
T1080 000:375.339 - 0.016ms returns 0
T1080 000:375.356 JLINK_WriteReg(MSP, 0x20001000)
T1080 000:375.373 - 0.016ms returns 0
T1080 000:375.401 JLINK_WriteReg(PSP, 0x20001000)
T1080 000:375.418 - 0.017ms returns 0
T1080 000:375.436 JLINK_WriteReg(CFBP, 0x00000000)
T1080 000:375.452 - 0.016ms returns 0
T1080 000:375.470 JLINK_SetBPEx(Addr = 0x20000000, Type = 0xFFFFFFF2)
T1080 000:375.488 - 0.018ms returns 0x0000000A
T1080 000:375.506 JLINK_Go()
T1080 000:375.579   CPU_ReadMem(4 bytes @ 0xE0001000)
T1080 000:380.941 - 5.433ms 
T1080 000:380.978 JLINK_IsHalted()
T1080 000:385.689   CPU_ReadMem(2 bytes @ 0x20000000)
T1080 000:386.280 - 5.300ms returns TRUE
T1080 000:386.325 JLINK_ReadReg(R15 (PC))
T1080 000:386.347 - 0.022ms returns 0x20000000
T1080 000:386.367 JLINK_ClrBPEx(BPHandle = 0x0000000A)
T1080 000:386.385 - 0.018ms returns 0x00
T1080 000:386.403 JLINK_ReadReg(R0)
T1080 000:386.420 - 0.017ms returns 0x00000001
T1080 000:386.438 JLINK_HasError()
T1080 000:386.457 JLINK_WriteReg(R0, 0x08001000)
T1080 000:386.474 - 0.017ms returns 0
T1080 000:386.492 JLINK_WriteReg(R1, 0x00000400)
T1080 000:386.509 - 0.016ms returns 0
T1080 000:386.526 JLINK_WriteReg(R2, 0x000000FF)
T1080 000:386.543 - 0.016ms returns 0
T1080 000:386.561 JLINK_WriteReg(R3, 0x00000000)
T1080 000:386.577 - 0.016ms returns 0
T1080 000:386.595 JLINK_WriteReg(R4, 0x00000000)
T1080 000:386.611 - 0.017ms returns 0
T1080 000:386.629 JLINK_WriteReg(R5, 0x00000000)
T1080 000:386.646 - 0.016ms returns 0
T1080 000:386.669 JLINK_WriteReg(R6, 0x00000000)
T1080 000:386.686 - 0.016ms returns 0
T1080 000:386.703 JLINK_WriteReg(R7, 0x00000000)
T1080 000:386.720 - 0.016ms returns 0
T1080 000:386.737 JLINK_WriteReg(R8, 0x00000000)
T1080 000:386.754 - 0.016ms returns 0
T1080 000:386.771 JLINK_WriteReg(R9, 0x20000160)
T1080 000:386.788 - 0.016ms returns 0
T1080 000:386.806 JLINK_WriteReg(R10, 0x00000000)
T1080 000:386.822 - 0.016ms returns 0
T1080 000:386.839 JLINK_WriteReg(R11, 0x00000000)
T1080 000:386.856 - 0.016ms returns 0
T1080 000:386.874 JLINK_WriteReg(R12, 0x00000000)
T1080 000:386.890 - 0.016ms returns 0
T1080 000:386.908 JLINK_WriteReg(R13 (SP), 0x20001000)
T1080 000:386.924 - 0.017ms returns 0
T1080 000:386.942 JLINK_WriteReg(R14, 0x20000001)
T1080 000:386.959 - 0.016ms returns 0
T1080 000:386.976 JLINK_WriteReg(R15 (PC), 0x200000B6)
T1080 000:386.993 - 0.016ms returns 0
T1080 000:387.010 JLINK_WriteReg(XPSR, 0x01000000)
T1080 000:387.273 - 0.260ms returns 0
T1080 000:387.302 JLINK_WriteReg(MSP, 0x20001000)
T1080 000:387.321 - 0.019ms returns 0
T1080 000:387.339 JLINK_WriteReg(PSP, 0x20001000)
T1080 000:387.356 - 0.016ms returns 0
T1080 000:387.374 JLINK_WriteReg(CFBP, 0x00000000)
T1080 000:387.390 - 0.016ms returns 0
T1080 000:387.409 JLINK_SetBPEx(Addr = 0x20000000, Type = 0xFFFFFFF2)
T1080 000:387.427 - 0.018ms returns 0x0000000B
T1080 000:387.445 JLINK_Go()
T1080 000:387.470   CPU_ReadMem(4 bytes @ 0xE0001000)
T1080 000:392.674 - 5.229ms 
T1080 000:392.711 JLINK_IsHalted()
T1080 000:393.415 - 0.703ms returns FALSE
T1080 000:393.460 JLINK_HasError()
T1080 000:398.071 JLINK_IsHalted()
T1080 000:403.121   CPU_ReadMem(2 bytes @ 0x20000000)
T1080 000:403.885 - 5.813ms returns TRUE
T1080 000:403.917 JLINK_ReadReg(R15 (PC))
T1080 000:403.939 - 0.022ms returns 0x20000000
T1080 000:403.959 JLINK_ClrBPEx(BPHandle = 0x0000000B)
T1080 000:403.976 - 0.018ms returns 0x00
T1080 000:403.994 JLINK_ReadReg(R0)
T1080 000:404.018 - 0.023ms returns 0x00000000
T1080 000:404.648 JLINK_HasError()
T1080 000:404.680 JLINK_WriteReg(R0, 0x08001400)
T1080 000:404.699 - 0.019ms returns 0
T1080 000:404.718 JLINK_WriteReg(R1, 0x00000400)
T1080 000:404.735 - 0.016ms returns 0
T1080 000:404.752 JLINK_WriteReg(R2, 0x000000FF)
T1080 000:404.769 - 0.016ms returns 0
T1080 000:404.786 JLINK_WriteReg(R3, 0x00000000)
T1080 000:404.802 - 0.016ms returns 0
T1080 000:404.821 JLINK_WriteReg(R4, 0x00000000)
T1080 000:404.837 - 0.016ms returns 0
T1080 000:404.854 JLINK_WriteReg(R5, 0x00000000)
T1080 000:404.871 - 0.016ms returns 0
T1080 000:404.888 JLINK_WriteReg(R6, 0x00000000)
T1080 000:404.910 - 0.022ms returns 0
T1080 000:404.932 JLINK_WriteReg(R7, 0x00000000)
T1080 000:404.952 - 0.019ms returns 0
T1080 000:404.970 JLINK_WriteReg(R8, 0x00000000)
T1080 000:404.986 - 0.016ms returns 0
T1080 000:405.073 JLINK_WriteReg(R9, 0x20000160)
T1080 000:405.091 - 0.018ms returns 0
T1080 000:405.109 JLINK_WriteReg(R10, 0x00000000)
T1080 000:405.126 - 0.016ms returns 0
T1080 000:405.143 JLINK_WriteReg(R11, 0x00000000)
T1080 000:405.160 - 0.016ms returns 0
T1080 000:405.177 JLINK_WriteReg(R12, 0x00000000)
T1080 000:405.193 - 0.016ms returns 0
T1080 000:405.211 JLINK_WriteReg(R13 (SP), 0x20001000)
T1080 000:405.229 - 0.017ms returns 0
T1080 000:405.246 JLINK_WriteReg(R14, 0x20000001)
T1080 000:405.263 - 0.016ms returns 0
T1080 000:405.281 JLINK_WriteReg(R15 (PC), 0x20000020)
T1080 000:405.297 - 0.017ms returns 0
T1080 000:405.315 JLINK_WriteReg(XPSR, 0x01000000)
T1080 000:405.331 - 0.016ms returns 0
T1080 000:405.355 JLINK_WriteReg(MSP, 0x20001000)
T1080 000:405.371 - 0.016ms returns 0
T1080 000:405.389 JLINK_WriteReg(PSP, 0x20001000)
T1080 000:405.405 - 0.016ms returns 0
T1080 000:405.423 JLINK_WriteReg(CFBP, 0x00000000)
T1080 000:405.440 - 0.016ms returns 0
T1080 000:405.458 JLINK_SetBPEx(Addr = 0x20000000, Type = 0xFFFFFFF2)
T1080 000:405.476 - 0.018ms returns 0x0000000C
T1080 000:405.494 JLINK_Go()
T1080 000:405.521   CPU_ReadMem(4 bytes @ 0xE0001000)
T1080 000:410.980 - 5.485ms 
T1080 000:411.023 JLINK_IsHalted()
T1080 000:415.829   CPU_ReadMem(2 bytes @ 0x20000000)
T1080 000:416.445 - 5.421ms returns TRUE
T1080 000:416.471 JLINK_ReadReg(R15 (PC))
T1080 000:416.491 - 0.019ms returns 0x20000000
T1080 000:416.510 JLINK_ClrBPEx(BPHandle = 0x0000000C)
T1080 000:416.528 - 0.017ms returns 0x00
T1080 000:416.546 JLINK_ReadReg(R0)
T1080 000:416.563 - 0.016ms returns 0x00000001
T1080 000:416.581 JLINK_HasError()
T1080 000:416.599 JLINK_WriteReg(R0, 0x08001400)
T1080 000:416.616 - 0.017ms returns 0
T1080 000:416.634 JLINK_WriteReg(R1, 0x00000400)
T1080 000:416.650 - 0.016ms returns 0
T1080 000:416.668 JLINK_WriteReg(R2, 0x000000FF)
T1080 000:416.684 - 0.016ms returns 0
T1080 000:416.702 JLINK_WriteReg(R3, 0x00000000)
T1080 000:416.724 - 0.022ms returns 0
T1080 000:416.742 JLINK_WriteReg(R4, 0x00000000)
T1080 000:416.758 - 0.016ms returns 0
T1080 000:416.776 JLINK_WriteReg(R5, 0x00000000)
T1080 000:416.792 - 0.016ms returns 0
T1080 000:416.809 JLINK_WriteReg(R6, 0x00000000)
T1080 000:416.826 - 0.016ms returns 0
T1080 000:416.843 JLINK_WriteReg(R7, 0x00000000)
T1080 000:416.860 - 0.016ms returns 0
T1080 000:416.877 JLINK_WriteReg(R8, 0x00000000)
T1080 000:416.893 - 0.016ms returns 0
T1080 000:416.911 JLINK_WriteReg(R9, 0x20000160)
T1080 000:416.927 - 0.016ms returns 0
T1080 000:416.945 JLINK_WriteReg(R10, 0x00000000)
T1080 000:416.962 - 0.017ms returns 0
T1080 000:416.980 JLINK_WriteReg(R11, 0x00000000)
T1080 000:416.996 - 0.016ms returns 0
T1080 000:417.013 JLINK_WriteReg(R12, 0x00000000)
T1080 000:417.030 - 0.016ms returns 0
T1080 000:417.047 JLINK_WriteReg(R13 (SP), 0x20001000)
T1080 000:417.064 - 0.017ms returns 0
T1080 000:417.081 JLINK_WriteReg(R14, 0x20000001)
T1080 000:417.098 - 0.016ms returns 0
T1080 000:417.115 JLINK_WriteReg(R15 (PC), 0x200000B6)
T1080 000:417.132 - 0.016ms returns 0
T1080 000:417.149 JLINK_WriteReg(XPSR, 0x01000000)
T1080 000:417.165 - 0.016ms returns 0
T1080 000:417.183 JLINK_WriteReg(MSP, 0x20001000)
T1080 000:417.199 - 0.016ms returns 0
T1080 000:417.217 JLINK_WriteReg(PSP, 0x20001000)
T1080 000:417.233 - 0.016ms returns 0
T1080 000:417.251 JLINK_WriteReg(CFBP, 0x00000000)
T1080 000:417.267 - 0.016ms returns 0
T1080 000:417.285 JLINK_SetBPEx(Addr = 0x20000000, Type = 0xFFFFFFF2)
T1080 000:417.302 - 0.017ms returns 0x0000000D
T1080 000:417.320 JLINK_Go()
T1080 000:417.344   CPU_ReadMem(4 bytes @ 0xE0001000)
T1080 000:422.539 - 5.218ms 
T1080 000:422.574 JLINK_IsHalted()
T1080 000:423.121 - 0.547ms returns FALSE
T1080 000:424.550 JLINK_HasError()
T1080 000:426.390 JLINK_IsHalted()
T1080 000:431.125   CPU_ReadMem(2 bytes @ 0x20000000)
T1080 000:431.716 - 5.325ms returns TRUE
T1080 000:431.764 JLINK_ReadReg(R15 (PC))
T1080 000:431.787 - 0.023ms returns 0x20000000
T1080 000:431.812 JLINK_ClrBPEx(BPHandle = 0x0000000D)
T1080 000:431.832 - 0.020ms returns 0x00
T1080 000:431.856 JLINK_ReadReg(R0)
T1080 000:431.874 - 0.018ms returns 0x00000000
T1080 000:432.524 JLINK_HasError()
T1080 000:432.557 JLINK_WriteReg(R0, 0x08001800)
T1080 000:432.578 - 0.020ms returns 0
T1080 000:432.598 JLINK_WriteReg(R1, 0x00000400)
T1080 000:432.615 - 0.017ms returns 0
T1080 000:432.633 JLINK_WriteReg(R2, 0x000000FF)
T1080 000:432.650 - 0.017ms returns 0
T1080 000:432.668 JLINK_WriteReg(R3, 0x00000000)
T1080 000:432.684 - 0.016ms returns 0
T1080 000:432.702 JLINK_WriteReg(R4, 0x00000000)
T1080 000:432.718 - 0.016ms returns 0
T1080 000:432.737 JLINK_WriteReg(R5, 0x00000000)
T1080 000:432.754 - 0.017ms returns 0
T1080 000:432.774 JLINK_WriteReg(R6, 0x00000000)
T1080 000:432.790 - 0.016ms returns 0
T1080 000:432.808 JLINK_WriteReg(R7, 0x00000000)
T1080 000:432.824 - 0.016ms returns 0
T1080 000:432.841 JLINK_WriteReg(R8, 0x00000000)
T1080 000:432.857 - 0.016ms returns 0
T1080 000:432.875 JLINK_WriteReg(R9, 0x20000160)
T1080 000:432.897 - 0.021ms returns 0
T1080 000:432.914 JLINK_WriteReg(R10, 0x00000000)
T1080 000:432.931 - 0.016ms returns 0
T1080 000:432.950 JLINK_WriteReg(R11, 0x00000000)
T1080 000:432.965 - 0.015ms returns 0
T1080 000:432.982 JLINK_WriteReg(R12, 0x00000000)
T1080 000:432.997 - 0.015ms returns 0
T1080 000:433.014 JLINK_WriteReg(R13 (SP), 0x20001000)
T1080 000:433.030 - 0.016ms returns 0
T1080 000:433.047 JLINK_WriteReg(R14, 0x20000001)
T1080 000:433.063 - 0.015ms returns 0
T1080 000:433.079 JLINK_WriteReg(R15 (PC), 0x20000020)
T1080 000:433.095 - 0.016ms returns 0
T1080 000:433.112 JLINK_WriteReg(XPSR, 0x01000000)
T1080 000:433.128 - 0.015ms returns 0
T1080 000:433.145 JLINK_WriteReg(MSP, 0x20001000)
T1080 000:433.161 - 0.016ms returns 0
T1080 000:433.177 JLINK_WriteReg(PSP, 0x20001000)
T1080 000:433.193 - 0.015ms returns 0
T1080 000:433.226 JLINK_WriteReg(CFBP, 0x00000000)
T1080 000:433.242 - 0.016ms returns 0
T1080 000:433.260 JLINK_SetBPEx(Addr = 0x20000000, Type = 0xFFFFFFF2)
T1080 000:433.277 - 0.017ms returns 0x0000000E
T1080 000:433.294 JLINK_Go()
T1080 000:433.320   CPU_ReadMem(4 bytes @ 0xE0001000)
T1080 000:438.813 - 5.518ms 
T1080 000:438.855 JLINK_IsHalted()
T1080 000:443.481   CPU_ReadMem(2 bytes @ 0x20000000)
T1080 000:444.123 - 5.266ms returns TRUE
T1080 000:444.168 JLINK_ReadReg(R15 (PC))
T1080 000:444.189 - 0.021ms returns 0x20000000
T1080 000:444.209 JLINK_ClrBPEx(BPHandle = 0x0000000E)
T1080 000:444.227 - 0.018ms returns 0x00
T1080 000:444.245 JLINK_ReadReg(R0)
T1080 000:444.262 - 0.016ms returns 0x00000001
T1080 000:444.280 JLINK_HasError()
T1080 000:444.305 JLINK_WriteReg(R0, 0x08001800)
T1080 000:444.322 - 0.017ms returns 0
T1080 000:444.340 JLINK_WriteReg(R1, 0x00000400)
T1080 000:444.356 - 0.016ms returns 0
T1080 000:444.374 JLINK_WriteReg(R2, 0x000000FF)
T1080 000:444.391 - 0.017ms returns 0
T1080 000:444.409 JLINK_WriteReg(R3, 0x00000000)
T1080 000:444.425 - 0.016ms returns 0
T1080 000:444.443 JLINK_WriteReg(R4, 0x00000000)
T1080 000:444.459 - 0.016ms returns 0
T1080 000:444.477 JLINK_WriteReg(R5, 0x00000000)
T1080 000:444.493 - 0.016ms returns 0
T1080 000:444.511 JLINK_WriteReg(R6, 0x00000000)
T1080 000:444.527 - 0.016ms returns 0
T1080 000:444.546 JLINK_WriteReg(R7, 0x00000000)
T1080 000:444.562 - 0.016ms returns 0
T1080 000:444.580 JLINK_WriteReg(R8, 0x00000000)
T1080 000:444.596 - 0.016ms returns 0
T1080 000:444.614 JLINK_WriteReg(R9, 0x20000160)
T1080 000:444.630 - 0.016ms returns 0
T1080 000:444.648 JLINK_WriteReg(R10, 0x00000000)
T1080 000:444.664 - 0.016ms returns 0
T1080 000:444.682 JLINK_WriteReg(R11, 0x00000000)
T1080 000:444.698 - 0.016ms returns 0
T1080 000:444.716 JLINK_WriteReg(R12, 0x00000000)
T1080 000:444.732 - 0.016ms returns 0
T1080 000:444.750 JLINK_WriteReg(R13 (SP), 0x20001000)
T1080 000:444.767 - 0.017ms returns 0
T1080 000:444.784 JLINK_WriteReg(R14, 0x20000001)
T1080 000:444.808 - 0.023ms returns 0
T1080 000:444.826 JLINK_WriteReg(R15 (PC), 0x200000B6)
T1080 000:444.843 - 0.017ms returns 0
T1080 000:444.861 JLINK_WriteReg(XPSR, 0x01000000)
T1080 000:444.877 - 0.016ms returns 0
T1080 000:444.895 JLINK_WriteReg(MSP, 0x20001000)
T1080 000:444.911 - 0.016ms returns 0
T1080 000:444.929 JLINK_WriteReg(PSP, 0x20001000)
T1080 000:444.945 - 0.016ms returns 0
T1080 000:444.963 JLINK_WriteReg(CFBP, 0x00000000)
T1080 000:444.979 - 0.016ms returns 0
T1080 000:444.997 JLINK_SetBPEx(Addr = 0x20000000, Type = 0xFFFFFFF2)
T1080 000:445.015 - 0.017ms returns 0x0000000F
T1080 000:445.032 JLINK_Go()
T1080 000:445.058   CPU_ReadMem(4 bytes @ 0xE0001000)
T1080 000:450.285 - 5.251ms 
T1080 000:450.335 JLINK_IsHalted()
T1080 000:450.888 - 0.552ms returns FALSE
